
T04D4 000:287 SEGGER J-Link V5.12g Log File (0001ms, 0257ms total)
T04D4 000:287 DLL Compiled: May 27 2016 16:57:47 (0001ms, 0257ms total)
T04D4 000:287 Logging started @ 2016-07-24 17:41 (0001ms, 0257ms total)
T04D4 000:288 JLINK_SetWarnOutHandler(...) (0000ms, 0257ms total)
T04D4 000:288 JLINK_OpenEx(...)
Firmware: J-Link ARM V8 compiled Nov 28 2014 13:44:46
Hardware: V8.00
S/N: 12345678
Feature(s): RDI,FlashDL,FlashBP,JFlash,GDBFull  returns O.K. (0262ms, 0519ms total)
T04D4 000:550 JLINK_SetErrorOutHandler(...) (0000ms, 0519ms total)
T04D4 000:550 JLINK_ExecCommand("ProjectFile = "E:\apingrtt\rt-thread-stable-v2.1.x\bsp\stm32f407VGT6\JLinkSettings.ini"", ...)  returns 0x00 (0000ms, 0519ms total)
T04D4 000:550 JLINK_ExecCommand("Device = STM32F407VGTx", ...)Device "STM32F407VG" selected.  returns 0x00 (0003ms, 0523ms total)
T04D4 000:554 JLINK_ExecCommand("DisableConnectionTimeout", ...)  returns 0x01 (0000ms, 0523ms total)
T04D4 000:554 JLINK_GetHardwareVersion()  returns 0x13880 (0000ms, 0523ms total)
T04D4 000:554 JLINK_GetDLLVersion()  returns 51207 (0000ms, 0523ms total)
T04D4 000:554 JLINK_GetFirmwareString(...) (0000ms, 0523ms total)
T04D4 000:560 JLINK_GetDLLVersion()  returns 51207 (0000ms, 0523ms total)
T04D4 000:560 JLINK_GetCompileDateTime() (0000ms, 0523ms total)
T04D4 000:561 JLINK_GetFirmwareString(...) (0000ms, 0523ms total)
T04D4 000:561 JLINK_GetHardwareVersion()  returns 0x13880 (0000ms, 0523ms total)
T04D4 000:561 JLINK_TIF_Select(JLINKARM_TIF_SWD)  returns 0x00 (0002ms, 0525ms total)
T04D4 000:563 JLINK_SetSpeed(5000) (0000ms, 0525ms total)
T04D4 000:563 JLINK_GetId() >0x108 TIF>Found SWD-DP with ID 0x2BA01477 >0x0D TIF> >0x28 TIF> >0x0D TIF> >0x28 TIF> >0x0D TIF> >0x28 TIF> >0x0D TIF> >0x28 TIF> >0x0D TIF> >0x21 TIF> >0x0D TIF> >0x28 TIF> >0x0D TIF> >0x28 TIF> >0x0D TIF> >0x28 TIF> >0x0D TIF> >0x21 TIF> >0x0D TIF> >0x21 TIF> >0x0D TIF> >0x28 TIF> >0x0D TIF> >0x21 TIF> >0x0D TIF> >0x21 TIF> >0x0D TIF> >0x28 TIF> >0x0D TIF> >0x21 TIF> >0x0D TIF> >0x21 TIF> >0x0D TIF> >0x28 TIF> >0x0D TIF> >0x21 TIF> >0x0D TIF> >0x21 TIF> >0x0D TIF>
 >0x28 TIF> >0x0D TIF> >0x21 TIF> >0x0D TIF> >0x21 TIF> >0x0D TIF> >0x28 TIF> >0x0D TIF> >0x21 TIF> >0x0D TIF> >0x21 TIF> >0x108 TIF>Found SWD-DP with ID 0x2BA01477 >0x0D TIF> >0x28 TIF> >0x0D TIF> >0x28 TIF> >0x0D TIF> >0x28 TIF> >0x0D TIF> >0x28 TIF> >0x0D TIF> >0x21 TIF> >0x0D TIF> >0x28 TIF> >0x0D TIF> >0x28 TIF> >0x0D TIF> >0x21 TIF> >0x0D TIF> >0x21 TIF> >0x0D TIF> >0x21 TIF> >0x0D TIF> >0x28 TIF> >0x0D TIF> >0x28 TIF> >0x0D TIF> >0x28 TIF> >0x0D TIF> >0x21 TIF> >0x0D TIF> >0x21 TIF> >0x0D TIF>
 >0x28 TIF> >0x0D TIF> >0x21 TIF> >0x0D TIF> >0x21 TIF>Found Cortex-M4 r0p1, Little endian. -- CPU_ReadMem(4 bytes @ 0xE000EDF0) -- CPU_ReadMem(4 bytes @ 0xE0002000)FPUnit: 6 code (BP) slots and 2 literal slots -- CPU_ReadMem(4 bytes @ 0xE000EDFC) -- CPU_ReadMem(4 bytes @ 0xE0001000) -- CPU_WriteMem(4 bytes @ 0xE0001000) -- CPU_ReadMem(4 bytes @ 0xE000ED88) -- CPU_WriteMem(4 bytes @ 0xE000ED88) -- CPU_ReadMem(4 bytes @ 0xE000ED88) -- CPU_WriteMem(4 bytes @ 0xE000ED88)CoreSight components:
ROMTbl 0 @ E00FF000 -- CPU_ReadMem(16 bytes @ 0xE00FF000) -- CPU_ReadMem(16 bytes @ 0xE000EFF0) -- CPU_ReadMem(16 bytes @ 0xE000EFE0)ROMTbl 0 [0]: FFF0F000, CID: B105E00D, PID: 000BB00C SCS -- CPU_ReadMem(16 bytes @ 0xE0001FF0) -- CPU_ReadMem(16 bytes @ 0xE0001FE0)ROMTbl 0 [1]: FFF02000, CID: B105E00D, PID: 003BB002 DWT -- CPU_ReadMem(16 bytes @ 0xE0002FF0) -- CPU_ReadMem(16 bytes @ 0xE0002FE0)ROMTbl 0 [2]: FFF03000, CID: B105E00D, PID: 002BB003 FPB -- CPU_ReadMem(16 bytes @ 0xE0000FF0)
 -- CPU_ReadMem(16 bytes @ 0xE0000FE0)ROMTbl 0 [3]: FFF01000, CID: B105E00D, PID: 003BB001 ITM -- CPU_ReadMem(16 bytes @ 0xE00FF010) -- CPU_ReadMem(16 bytes @ 0xE0040FF0) -- CPU_ReadMem(16 bytes @ 0xE0040FE0)ROMTbl 0 [4]: FFF41000, CID: B105900D, PID: 000BB9A1 TPIU -- CPU_ReadMem(16 bytes @ 0xE0041FF0) -- CPU_ReadMem(16 bytes @ 0xE0041FE0)ROMTbl 0 [5]: FFF42000, CID: B105900D, PID: 000BB925 ETM >0x0D TIF> >0x21 TIF>  returns 0x2BA01477 (0058ms, 0583ms total)
T04D4 000:621 JLINK_GetDLLVersion()  returns 51207 (0000ms, 0583ms total)
T04D4 000:621 JLINK_CORE_GetFound()  returns 0xE0000FF (0000ms, 0583ms total)
T04D4 000:621 JLINK_GetDebugInfo(0x100) -- Value=0xE00FF000  returns 0x00 (0000ms, 0583ms total)
T04D4 000:621 JLINK_GetDebugInfo(0x100) -- Value=0xE00FF000  returns 0x00 (0000ms, 0583ms total)
T04D4 000:621 JLINK_GetDebugInfo(0x101) -- Value=0xE0041000  returns 0x00 (0000ms, 0583ms total)
T04D4 000:621 JLINK_GetDebugInfo(0x102) -- Value=0x00000000  returns 0x00 (0000ms, 0583ms total)
T04D4 000:621 JLINK_GetDebugInfo(0x103) -- Value=0xE0040000  returns 0x00 (0000ms, 0583ms total)
T04D4 000:621 JLINK_GetDebugInfo(0x104) -- Value=0xE0000000  returns 0x00 (0001ms, 0584ms total)
T04D4 000:622 JLINK_GetDebugInfo(0x105) -- Value=0xE0001000  returns 0x00 (0000ms, 0584ms total)
T04D4 000:622 JLINK_GetDebugInfo(0x106) -- Value=0xE0002000  returns 0x00 (0000ms, 0584ms total)
T04D4 000:622 JLINK_GetDebugInfo(0x107) -- Value=0xE000E000  returns 0x00 (0000ms, 0584ms total)
T04D4 000:622 JLINK_GetDebugInfo(0x10C) -- Value=0xE000EDF0  returns 0x00 (0000ms, 0584ms total)
T04D4 000:622 JLINK_ReadMemU32(0xE000EF40, 0x0001 Items, ...) -- CPU is running -- CPU_ReadMem(4 bytes @ 0xE000EF40) - Data: 21 00 11 10  returns 0x01 (0000ms, 0584ms total)
T04D4 000:622 JLINK_ReadMemU32(0xE000EF44, 0x0001 Items, ...) -- CPU is running -- CPU_ReadMem(4 bytes @ 0xE000EF44) - Data: 11 00 00 11  returns 0x01 (0001ms, 0585ms total)
T04D4 000:623 JLINK_ReadMemU32(0xE000ED00, 0x0001 Items, ...) -- CPU is running -- CPU_ReadMem(4 bytes @ 0xE000ED00) - Data: 41 C2 0F 41  returns 0x01 (0000ms, 0585ms total)
T04D4 000:624 JLINK_SetResetType(JLINKARM_RESET_TYPE_NORMAL)  returns JLINKARM_RESET_TYPE_NORMAL (0000ms, 0585ms total)
T04D4 000:624 JLINK_Reset() -- CPU is running -- CPU_WriteMem(4 bytes @ 0xE000EDF0) -- CPU is running -- CPU_WriteMem(4 bytes @ 0xE000EDFC) >0x35 TIF> -- CPU is running -- CPU_WriteMem(4 bytes @ 0xE000ED0C) -- CPU is running -- CPU_ReadMem(4 bytes @ 0xE000EDF0) -- CPU is running -- CPU_ReadMem(4 bytes @ 0xE000EDF0) -- CPU is running -- CPU_WriteMem(4 bytes @ 0xE000EDF0) -- CPU is running -- CPU_WriteMem(4 bytes @ 0xE000EDFC) -- CPU is running -- CPU_ReadMem(4 bytes @ 0xE000EDF0)
 -- CPU_WriteMem(4 bytes @ 0xE0002000) -- CPU_ReadMem(4 bytes @ 0xE000EDFC) -- CPU_ReadMem(4 bytes @ 0xE0001000) (0017ms, 0602ms total)
T04D4 000:641 JLINK_ReadReg(R15 (PC))  returns 0x08001344 (0000ms, 0602ms total)
T04D4 000:641 JLINK_ReadReg(XPSR)  returns 0x01000000 (0000ms, 0602ms total)
T04D4 000:641 JLINK_Halt()  returns 0x00 (0000ms, 0602ms total)
T04D4 000:641 JLINK_IsHalted()  returns TRUE (0000ms, 0602ms total)
T04D4 000:642 JLINK_ReadMemU32(0xE000EDF0, 0x0001 Items, ...) -- CPU_ReadMem(4 bytes @ 0xE000EDF0) - Data: 03 00 03 00  returns 0x01 (0002ms, 0604ms total)
T04D4 000:644 JLINK_WriteU32(0xE000EDF0, 0xA05F0003) -- CPU_WriteMem(4 bytes @ 0xE000EDF0)  returns 0x00 (0001ms, 0605ms total)
T04D4 000:645 JLINK_WriteU32(0xE000EDFC, 0x01000000) -- CPU_WriteMem(4 bytes @ 0xE000EDFC)  returns 0x00 (0001ms, 0606ms total)
T04D4 000:646 JLINK_GetHWStatus(...)  returns 0x00 (0001ms, 0607ms total)
T04D4 000:647 JLINK_GetNumBPUnits(Type = 0xFFFFFF00)  returns 0x06 (0000ms, 0607ms total)
T04D4 000:647 JLINK_GetNumBPUnits(Type = 0xF0)  returns 0x2000 (0000ms, 0607ms total)
T04D4 000:647 JLINK_GetNumWPUnits()  returns 0x04 (0000ms, 0607ms total)
T04D4 000:647 JLINK_GetSpeed()  returns 0xFA0 (0000ms, 0607ms total)
T04D4 000:648 JLINK_ReadMemU32(0xE000E004, 0x0001 Items, ...) -- CPU_ReadMem(4 bytes @ 0xE000E004) - Data: 02 00 00 00  returns 0x01 (0000ms, 0607ms total)
T04D4 000:648 JLINK_ReadMemU32(0xE000E004, 0x0001 Items, ...) -- CPU_ReadMem(4 bytes @ 0xE000E004) - Data: 02 00 00 00  returns 0x01 (0001ms, 0608ms total)
T04D4 000:649 JLINK_WriteMem(0xE0001000, 0x001C Bytes, ...) - Data: 01 00 00 00 00 00 00 00 00 00 00 00 00 00 00 00 ... -- CPU_WriteMem(28 bytes @ 0xE0001000)  returns 0x1C (0001ms, 0609ms total)
T04D4 000:650 JLINK_ReadMem (0xE0001000, 0x001C Bytes, ...) -- CPU_ReadMem(28 bytes @ 0xE0001000) - Data: 01 00 00 40 00 00 00 00 00 00 00 00 00 00 00 00 ...  returns 0x00 (0001ms, 0610ms total)
T04D4 000:651 JLINK_ReadReg(R15 (PC))  returns 0x08001344 (0000ms, 0610ms total)
T04D4 000:651 JLINK_ReadReg(XPSR)  returns 0x01000000 (0000ms, 0610ms total)
T04D4 000:756 JLINK_SetResetType(JLINKARM_RESET_TYPE_NORMAL)  returns JLINKARM_RESET_TYPE_NORMAL (0000ms, 0610ms total)
T04D4 000:756 JLINK_Reset() -- CPU_WriteMem(4 bytes @ 0xE000EDF0) -- CPU_WriteMem(4 bytes @ 0xE000EDFC) >0x35 TIF> -- CPU_WriteMem(4 bytes @ 0xE000ED0C) -- CPU_ReadMem(4 bytes @ 0xE000EDF0) -- CPU_ReadMem(4 bytes @ 0xE000EDF0) -- CPU_WriteMem(4 bytes @ 0xE000EDF0) -- CPU_WriteMem(4 bytes @ 0xE000EDFC) -- CPU is running -- CPU_ReadMem(4 bytes @ 0xE000EDF0) -- CPU_WriteMem(4 bytes @ 0xE0002000) -- CPU_ReadMem(4 bytes @ 0xE000EDFC) -- CPU_ReadMem(4 bytes @ 0xE0001000) (0017ms, 0627ms total)
T04D4 000:773 JLINK_ReadReg(R15 (PC))  returns 0x08001344 (0000ms, 0627ms total)
T04D4 000:773 JLINK_ReadReg(XPSR)  returns 0x01000000 (0001ms, 0628ms total)
T04D4 000:774 JLINK_ReadMem (0x08001244, 0x003C Bytes, ...) -- CPU_ReadMem(64 bytes @ 0x08001240) -- Updating C cache (64 bytes @ 0x08001240) -- Read from C cache (60 bytes @ 0x08001244) - Data: 38 48 00 68 38 49 08 40 36 49 08 60 37 48 09 1D ...  returns 0x00 (0001ms, 0629ms total)
T04D4 000:775 JLINK_ReadMem (0x08001280, 0x003C Bytes, ...) -- CPU_ReadMem(64 bytes @ 0x08001280) -- Updating C cache (64 bytes @ 0x08001280) -- Read from C cache (60 bytes @ 0x08001280) - Data: 02 21 29 4D 08 35 2D 68 05 F0 0C 00 20 B1 04 28 ...  returns 0x00 (0001ms, 0630ms total)
T04D4 000:776 JLINK_ReadMem (0x080012BC, 0x003C Bytes, ...) -- CPU_ReadMem(64 bytes @ 0x080012C0) -- Updating C cache (64 bytes @ 0x080012C0) -- Read from C cache (60 bytes @ 0x080012BC) - Data: 54 B1 1F 4D B5 FB F1 F5 18 4E 36 1D 36 68 C6 F3 ...  returns 0x00 (0001ms, 0631ms total)
T04D4 000:777 JLINK_ReadMem (0x080012F8, 0x003C Bytes, ...) -- CPU_ReadMem(64 bytes @ 0x08001300) -- Updating C cache (64 bytes @ 0x08001300) -- Read from C cache (60 bytes @ 0x080012F8) - Data: F3 F5 0F 4E 35 60 03 E0 0C 4D 0D 4E 35 60 00 BF ...  returns 0x00 (0001ms, 0632ms total)
T04D4 000:779 JLINK_ReadMem (0x08001334, 0x003C Bytes, ...) -- CPU_ReadMem(64 bytes @ 0x08001340) -- Updating C cache (64 bytes @ 0x08001340) -- Read from C cache (60 bytes @ 0x08001334) - Data: 00 24 F4 00 50 00 00 20 00 12 7A 00 BC F5 00 08 ...  returns 0x00 (0000ms, 0632ms total)
T1168 002:495 JLINK_SetBPEx(Addr = 0x08005258, Type = 0xFFFFFFF2)  returns 0x00000001 (0000ms, 0633ms total)
T1168 002:495 JLINK_SetBPEx(Addr = 0x080011D8, Type = 0xFFFFFFF2)  returns 0x00000002 (0000ms, 0633ms total)
T1168 002:495 JLINK_SetBPEx(Addr = 0x080011D4, Type = 0xFFFFFFF2)  returns 0x00000003 (0000ms, 0633ms total)
T1168 002:495 JLINK_SetBPEx(Addr = 0x080011DC, Type = 0xFFFFFFF2)  returns 0x00000004 (0000ms, 0633ms total)
T1168 002:495 JLINK_SetBPEx(Addr = 0x08000CEE, Type = 0xFFFFFFF2)  returns 0x00000005 (0000ms, 0633ms total)
T1168 002:495 JLINK_SetBPEx(Addr = 0x08000CF2, Type = 0xFFFFFFF2)  returns 0x00000006 (0000ms, 0633ms total)
T1168 002:495 JLINK_SetBPEx(Addr = 0x08000BB4, Type = 0xFFFFFFF2) -- BP[0] @ 0x08005258 converted into FlashBP  returns 0x00000007 (0000ms, 0633ms total)
T1168 002:495 JLINK_SetBPEx(Addr = 0x080011E4, Type = 0xFFFFFFF2) -- BP[1] @ 0x080011D8 converted into FlashBP  returns 0x00000008 (0000ms, 0633ms total)
T1168 002:495 JLINK_Go() -- Read from C cache (2 bytes @ 0x08001344) -- CPU_ReadMem(4 bytes @ 0xE000ED18) -- CPU_WriteMem(4 bytes @ 0xE000ED18) -- CPU_ReadMem(4 bytes @ 0xE000ED18) -- CPU_WriteMem(4 bytes @ 0xE000ED18) -- Read from C cache (4 bytes @ 0x0800136C) -- Simulated -- Read from C cache (2 bytes @ 0x08001346) -- Simulated -- CPU_ReadMem(64 bytes @ 0x08001200) -- Updating C cache (64 bytes @ 0x08001200) -- Read from C cache (2 bytes @ 0x08001224) -- Read from C cache (4 bytes @ 0x08001324)
 -- Simulated -- Read from C cache (2 bytes @ 0x08001226) -- Not simulated -- Start of preparing flash programming -- CPU clock frequency: 16051 kHz -- End of preparing flash programming -- CPU is running -- CPU_ReadMem(16384 bytes @ 0x08004000) -- Updating flash cache (16384 bytes @ 0x08004000) -- Programming range 0x08004000 - 0x08007FFF (001 Sector, 16 KB) -- CPU is running -- CPU_ReadMem(16384 bytes @ 0x08000000) -- Updating flash cache (16384 bytes @ 0x08000000)
 -- Programming range 0x08000000 - 0x08003FFF (001 Sector, 16 KB) -- Start of restoring -- End of restoring -- CPU_WriteMem(4 bytes @ 0xE0002000) -- CPU_ReadMem(4 bytes @ 0xE0002008) -- CPU_WriteMem(4 bytes @ 0xE000EDF4) -- CPU_ReadMem(4 bytes @ 0xE000EDF8) -- CPU_WriteMem(4 bytes @ 0xE0002008) -- CPU_WriteMem(4 bytes @ 0xE000EDF8) -- CPU_WriteMem(4 bytes @ 0xE000EDF4) -- CPU_WriteMem(4 bytes @ 0xE000EDF0) -- CPU_WriteMem(4 bytes @ 0xE000EDF0) -- CPU_ReadMem(4 bytes @ 0xE000EDF0)
 -- CPU_WriteMem(4 bytes @ 0xE000EDF0) -- CPU_WriteMem(4 bytes @ 0xE0002008) -- CPU_WriteMem(4 bytes @ 0xE000EDF8) -- CPU_WriteMem(4 bytes @ 0xE000EDF4) -- CPU_WriteMem(4 bytes @ 0xE0002000) -- CPU_WriteMem(4 bytes @ 0xE0002000) -- CPU_WriteMem(4 bytes @ 0xE0002000) -- CPU_WriteMem(4 bytes @ 0xE0002000) -- CPU_WriteMem(4 bytes @ 0xE0002000) -- CPU_WriteMem(4 bytes @ 0xE0002000) -- CPU_ReadMem(4 bytes @ 0xE0001000) -- CPU_WriteMem(4 bytes @ 0xE0002008) -- CPU_WriteMem(4 bytes @ 0xE000200C)
 -- CPU_WriteMem(4 bytes @ 0xE0002010) -- CPU_WriteMem(4 bytes @ 0xE0002014) -- CPU_WriteMem(4 bytes @ 0xE0002018) -- CPU_WriteMem(4 bytes @ 0xE000201C) (1378ms, 2011ms total)
T1168 003:973 JLINK_IsHalted()  returns TRUE (0002ms, 2013ms total)
T1168 003:975 JLINK_Halt()  returns 0x00 (0000ms, 2011ms total)
T1168 003:975 JLINK_IsHalted()  returns TRUE (0000ms, 2011ms total)
T1168 003:975 JLINK_IsHalted()  returns TRUE (0000ms, 2011ms total)
T1168 003:975 JLINK_IsHalted()  returns TRUE (0000ms, 2011ms total)
T1168 003:975 JLINK_ReadReg(R15 (PC))  returns 0x08005258 (0000ms, 2011ms total)
T1168 003:975 JLINK_ReadReg(XPSR)  returns 0x01000000 (0000ms, 2011ms total)
T1168 003:975 JLINK_ClrBPEx(BPHandle = 0x00000001)  returns 0x00 (0000ms, 2011ms total)
T1168 003:975 JLINK_ClrBPEx(BPHandle = 0x00000002)  returns 0x00 (0000ms, 2011ms total)
T1168 003:975 JLINK_ClrBPEx(BPHandle = 0x00000003)  returns 0x00 (0000ms, 2011ms total)
T1168 003:975 JLINK_ClrBPEx(BPHandle = 0x00000004)  returns 0x00 (0000ms, 2011ms total)
T1168 003:975 JLINK_ClrBPEx(BPHandle = 0x00000005)  returns 0x00 (0001ms, 2012ms total)
T1168 003:976 JLINK_ClrBPEx(BPHandle = 0x00000006)  returns 0x00 (0000ms, 2012ms total)
T1168 003:976 JLINK_ClrBPEx(BPHandle = 0x00000007)  returns 0x00 (0000ms, 2012ms total)
T1168 003:976 JLINK_ClrBPEx(BPHandle = 0x00000008)  returns 0x00 (0000ms, 2012ms total)
T1168 003:976 JLINK_ReadMemU32(0xE000ED30, 0x0001 Items, ...) -- CPU_ReadMem(4 bytes @ 0xE000ED30) - Data: 03 00 00 00  returns 0x01 (0000ms, 2012ms total)
T1168 003:976 JLINK_ReadMemU32(0xE0001028, 0x0001 Items, ...) -- CPU_ReadMem(4 bytes @ 0xE0001028) - Data: 00 00 00 00  returns 0x01 (0001ms, 2013ms total)
T1168 003:977 JLINK_ReadMemU32(0xE0001038, 0x0001 Items, ...) -- CPU_ReadMem(4 bytes @ 0xE0001038) - Data: 00 02 00 00  returns 0x01 (0001ms, 2014ms total)
T1168 003:978 JLINK_ReadMemU32(0xE0001048, 0x0001 Items, ...) -- CPU_ReadMem(4 bytes @ 0xE0001048) - Data: 00 00 00 00  returns 0x01 (0000ms, 2014ms total)
T1168 003:978 JLINK_ReadMemU32(0xE0001058, 0x0001 Items, ...) -- CPU_ReadMem(4 bytes @ 0xE0001058) - Data: 00 00 00 00  returns 0x01 (0001ms, 2015ms total)
T1168 003:979 JLINK_ReadReg(R0)  returns 0x20001898 (0000ms, 2015ms total)
T1168 003:979 JLINK_ReadReg(R1)  returns 0x20002098 (0000ms, 2015ms total)
T1168 003:979 JLINK_ReadReg(R2)  returns 0x20002098 (0000ms, 2015ms total)
T1168 003:979 JLINK_ReadReg(R3)  returns 0x20002098 (0000ms, 2015ms total)
T1168 003:979 JLINK_ReadReg(R4)  returns 0x00000000 (0000ms, 2015ms total)
T1168 003:979 JLINK_ReadReg(R5)  returns 0x20001838 (0000ms, 2015ms total)
T1168 003:979 JLINK_ReadReg(R6)  returns 0x00000000 (0000ms, 2015ms total)
T1168 003:979 JLINK_ReadReg(R7)  returns 0x00000000 (0000ms, 2015ms total)
T1168 003:979 JLINK_ReadReg(R8)  returns 0x00000000 (0000ms, 2015ms total)
T1168 003:979 JLINK_ReadReg(R9)  returns 0x00000000 (0000ms, 2015ms total)
T1168 003:979 JLINK_ReadReg(R10)  returns 0x08010548 (0000ms, 2015ms total)
T1168 003:979 JLINK_ReadReg(R11)  returns 0x00000000 (0000ms, 2015ms total)
T1168 003:979 JLINK_ReadReg(R12)  returns 0x20001878 (0000ms, 2015ms total)
T1168 003:979 JLINK_ReadReg(R13 (SP))  returns 0x20002498 (0000ms, 2015ms total)
T1168 003:979 JLINK_ReadReg(R14)  returns 0x08000269 (0000ms, 2015ms total)
T1168 003:979 JLINK_ReadReg(R15 (PC))  returns 0x08005258 (0000ms, 2015ms total)
T1168 003:979 JLINK_ReadReg(XPSR)  returns 0x01000000 (0000ms, 2015ms total)
T1168 003:979 JLINK_ReadReg(MSP)  returns 0x20002498 (0000ms, 2015ms total)
T1168 003:979 JLINK_ReadReg(PSP)  returns 0x00000000 (0001ms, 2016ms total)
T1168 003:980 JLINK_ReadReg(CFBP)  returns 0x04000000 (0000ms, 2016ms total)
T1168 003:980 JLINK_ReadReg(FPSCR)  returns 0x03000000 (0003ms, 2019ms total)
T1168 003:983 JLINK_ReadReg(FPS0)  returns 0x00000000 (0000ms, 2019ms total)
T1168 003:983 JLINK_ReadReg(FPS1)  returns 0x00000000 (0000ms, 2019ms total)
T1168 003:983 JLINK_ReadReg(FPS2)  returns 0x00000000 (0000ms, 2019ms total)
T1168 003:983 JLINK_ReadReg(FPS3)  returns 0x00000000 (0000ms, 2019ms total)
T1168 003:983 JLINK_ReadReg(FPS4)  returns 0x00000000 (0000ms, 2019ms total)
T1168 003:983 JLINK_ReadReg(FPS5)  returns 0x00000000 (0000ms, 2019ms total)
T1168 003:983 JLINK_ReadReg(FPS6)  returns 0x00000000 (0000ms, 2019ms total)
T1168 003:983 JLINK_ReadReg(FPS7)  returns 0x00000000 (0001ms, 2020ms total)
T1168 003:984 JLINK_ReadReg(FPS8)  returns 0x00000000 (0000ms, 2020ms total)
T1168 003:984 JLINK_ReadReg(FPS9)  returns 0x00000000 (0000ms, 2020ms total)
T1168 003:984 JLINK_ReadReg(FPS10)  returns 0x00000000 (0000ms, 2020ms total)
T1168 003:984 JLINK_ReadReg(FPS11)  returns 0x00000000 (0000ms, 2020ms total)
T1168 003:984 JLINK_ReadReg(FPS12)  returns 0x00000000 (0000ms, 2020ms total)
T1168 003:984 JLINK_ReadReg(FPS13)  returns 0x00000000 (0000ms, 2020ms total)
T1168 003:984 JLINK_ReadReg(FPS14)  returns 0x00000000 (0000ms, 2020ms total)
T1168 003:984 JLINK_ReadReg(FPS15)  returns 0x00000000 (0000ms, 2020ms total)
T1168 003:984 JLINK_ReadReg(FPS16)  returns 0x00000000 (0000ms, 2020ms total)
T1168 003:984 JLINK_ReadReg(FPS17)  returns 0x00000000 (0000ms, 2020ms total)
T1168 003:984 JLINK_ReadReg(FPS18)  returns 0x00000000 (0000ms, 2020ms total)
T1168 003:984 JLINK_ReadReg(FPS19)  returns 0x00000000 (0000ms, 2020ms total)
T1168 003:984 JLINK_ReadReg(FPS20)  returns 0x00000000 (0000ms, 2020ms total)
T1168 003:984 JLINK_ReadReg(FPS21)  returns 0x00000000 (0000ms, 2020ms total)
T1168 003:984 JLINK_ReadReg(FPS22)  returns 0x00000000 (0000ms, 2020ms total)
T1168 003:984 JLINK_ReadReg(FPS23)  returns 0x00000000 (0000ms, 2020ms total)
T1168 003:984 JLINK_ReadReg(FPS24)  returns 0x00000000 (0000ms, 2020ms total)
T1168 003:984 JLINK_ReadReg(FPS25)  returns 0x00000000 (0000ms, 2020ms total)
T1168 003:984 JLINK_ReadReg(FPS26)  returns 0x00000000 (0000ms, 2020ms total)
T1168 003:984 JLINK_ReadReg(FPS27)  returns 0x00000000 (0000ms, 2020ms total)
T1168 003:984 JLINK_ReadReg(FPS28)  returns 0x00000000 (0000ms, 2020ms total)
T1168 003:984 JLINK_ReadReg(FPS29)  returns 0x00000000 (0000ms, 2020ms total)
T1168 003:984 JLINK_ReadReg(FPS30)  returns 0x00000000 (0000ms, 2020ms total)
T1168 003:984 JLINK_ReadReg(FPS31)  returns 0x00000000 (0000ms, 2020ms total)
T04D4 003:989 JLINK_ReadMem (0x08005256, 0x0002 Bytes, ...) -- Read from flash cache (2 bytes @ 0x08005256) - Data: 10 BD  returns 0x00 (0000ms, 2020ms total)
T04D4 003:989 JLINK_ReadMem (0x08005258, 0x003C Bytes, ...) -- Read from flash cache (60 bytes @ 0x08005258) -- Merging zombie BP[0]: 0xB510 @ 0x08005258 - Data: 10 B5 03 F0 95 FF FF F7 E4 FF 00 20 10 BD 00 00 ...  returns 0x00 (0000ms, 2020ms total)
T04D4 003:989 JLINK_ReadMem (0x08005254, 0x003C Bytes, ...) -- Read from flash cache (60 bytes @ 0x08005254) -- Merging zombie BP[0]: 0xB510 @ 0x08005258 - Data: 00 20 10 BD 10 B5 03 F0 95 FF FF F7 E4 FF 00 20 ...  returns 0x00 (0000ms, 2020ms total)
T04D4 003:989 JLINK_ReadMem (0x08005250, 0x003C Bytes, ...) -- Read from flash cache (60 bytes @ 0x08005250) -- Merging zombie BP[0]: 0xB510 @ 0x08005258 - Data: 03 F0 AE F8 00 20 10 BD 10 B5 03 F0 95 FF FF F7 ...  returns 0x00 (0000ms, 2020ms total)
T04D4 003:989 JLINK_ReadMem (0x0800524C, 0x003C Bytes, ...) -- Read from flash cache (60 bytes @ 0x0800524C) -- Merging zombie BP[0]: 0xB510 @ 0x08005258 - Data: FB F7 B3 FF 03 F0 AE F8 00 20 10 BD 10 B5 03 F0 ...  returns 0x00 (0000ms, 2020ms total)
T1168 006:140 JLINK_SetBPEx(Addr = 0x080011D8, Type = 0xFFFFFFF2)  returns 0x00000009 (0000ms, 2020ms total)
T1168 006:140 JLINK_SetBPEx(Addr = 0x080011D4, Type = 0xFFFFFFF2)  returns 0x0000000A (0000ms, 2020ms total)
T1168 006:140 JLINK_SetBPEx(Addr = 0x080011DC, Type = 0xFFFFFFF2)  returns 0x0000000B (0000ms, 2020ms total)
T1168 006:140 JLINK_SetBPEx(Addr = 0x08000CEE, Type = 0xFFFFFFF2)  returns 0x0000000C (0000ms, 2020ms total)
T1168 006:140 JLINK_SetBPEx(Addr = 0x08000CF2, Type = 0xFFFFFFF2)  returns 0x0000000D (0000ms, 2020ms total)
T1168 006:140 JLINK_SetBPEx(Addr = 0x08000BB4, Type = 0xFFFFFFF2)  returns 0x0000000E (0000ms, 2020ms total)
T1168 006:140 JLINK_SetBPEx(Addr = 0x080011E4, Type = 0xFFFFFFF2)  returns 0x0000000F (0000ms, 2020ms total)
T1168 006:140 JLINK_Go() -- Merging zombie BP[0]: 0xB510 @ 0x08005258 -- Merging zombie BP[0]: 0xB510 @ 0x08005258 -- CPU_ReadMem(4 bytes @ 0xE0001004) -- CPU_WriteMem(8 bytes @ 0x20002490) -- Simulated -- Read from flash cache (2 bytes @ 0x0800525A) -- Read from flash cache (2 bytes @ 0x0800525C) -- Simulated -- CPU_ReadMem(64 bytes @ 0x08009180) -- Updating C cache (64 bytes @ 0x08009180) -- Read from C cache (2 bytes @ 0x08009188) -- Read from C cache (2 bytes @ 0x0800918A) -- Not simulated
 -- Start of preparing flash programming -- CPU clock frequency: 16026 kHz -- End of preparing flash programming -- Read from flash cache (16384 bytes @ 0x08004000) -- Programming range 0x08004000 - 0x08007FFF (001 Sector, 16 KB) -- Start of restoring -- End of restoring -- CPU_WriteMem(4 bytes @ 0xE0002000) -- CPU_ReadMem(4 bytes @ 0xE0002008) -- CPU_WriteMem(4 bytes @ 0xE000EDF4) -- CPU_ReadMem(4 bytes @ 0xE000EDF8) -- CPU_WriteMem(4 bytes @ 0xE0002008) -- CPU_WriteMem(4 bytes @ 0xE000EDF8)
 -- CPU_WriteMem(4 bytes @ 0xE000EDF4) -- CPU_WriteMem(4 bytes @ 0xE000EDF0) -- CPU_WriteMem(4 bytes @ 0xE000EDF0) -- CPU_ReadMem(4 bytes @ 0xE000EDF0) -- CPU_WriteMem(4 bytes @ 0xE000EDF0) -- CPU_WriteMem(4 bytes @ 0xE0002008) -- CPU_WriteMem(4 bytes @ 0xE000EDF8) -- CPU_WriteMem(4 bytes @ 0xE000EDF4) -- CPU_WriteMem(4 bytes @ 0xE0002000) -- CPU_WriteMem(4 bytes @ 0xE0002000) -- CPU_WriteMem(4 bytes @ 0xE0002000) -- CPU_WriteMem(4 bytes @ 0xE0002000) -- CPU_WriteMem(4 bytes @ 0xE0002000)
 -- CPU_WriteMem(4 bytes @ 0xE0002000) -- CPU_ReadMem(4 bytes @ 0xE0001000) -- CPU_WriteMem(4 bytes @ 0xE0002008) -- CPU_WriteMem(4 bytes @ 0xE000200C) -- CPU_WriteMem(4 bytes @ 0xE0002010) -- CPU_WriteMem(4 bytes @ 0xE0002014) -- CPU_WriteMem(4 bytes @ 0xE0002018) -- CPU_WriteMem(4 bytes @ 0xE000201C) (0709ms, 2729ms total)
T1168 006:949 JLINK_IsHalted()  returns TRUE (0002ms, 2731ms total)
T1168 006:951 JLINK_Halt()  returns 0x00 (0000ms, 2729ms total)
T1168 006:951 JLINK_IsHalted()  returns TRUE (0000ms, 2729ms total)
T1168 006:951 JLINK_IsHalted()  returns TRUE (0000ms, 2729ms total)
T1168 006:951 JLINK_IsHalted()  returns TRUE (0000ms, 2729ms total)
T1168 006:951 JLINK_ReadReg(R15 (PC))  returns 0x080011D4 (0000ms, 2729ms total)
T1168 006:951 JLINK_ReadReg(XPSR)  returns 0x61000000 (0000ms, 2729ms total)
T1168 006:951 JLINK_ClrBPEx(BPHandle = 0x00000009)  returns 0x00 (0000ms, 2729ms total)
T1168 006:951 JLINK_ClrBPEx(BPHandle = 0x0000000A)  returns 0x00 (0000ms, 2729ms total)
T1168 006:951 JLINK_ClrBPEx(BPHandle = 0x0000000B)  returns 0x00 (0001ms, 2730ms total)
T1168 006:952 JLINK_ClrBPEx(BPHandle = 0x0000000C)  returns 0x00 (0000ms, 2730ms total)
T1168 006:952 JLINK_ClrBPEx(BPHandle = 0x0000000D)  returns 0x00 (0000ms, 2730ms total)
T1168 006:952 JLINK_ClrBPEx(BPHandle = 0x0000000E)  returns 0x00 (0000ms, 2730ms total)
T1168 006:952 JLINK_ClrBPEx(BPHandle = 0x0000000F)  returns 0x00 (0000ms, 2730ms total)
T1168 006:952 JLINK_ReadMemU32(0xE000ED30, 0x0001 Items, ...) -- CPU_ReadMem(4 bytes @ 0xE000ED30) - Data: 03 00 00 00  returns 0x01 (0000ms, 2730ms total)
T1168 006:952 JLINK_ReadMemU32(0xE0001028, 0x0001 Items, ...) -- CPU_ReadMem(4 bytes @ 0xE0001028) - Data: 00 00 00 00  returns 0x01 (0001ms, 2731ms total)
T1168 006:953 JLINK_ReadMemU32(0xE0001038, 0x0001 Items, ...) -- CPU_ReadMem(4 bytes @ 0xE0001038) - Data: 00 02 00 00  returns 0x01 (0001ms, 2732ms total)
T1168 006:954 JLINK_ReadMemU32(0xE0001048, 0x0001 Items, ...) -- CPU_ReadMem(4 bytes @ 0xE0001048) - Data: 00 00 00 00  returns 0x01 (0000ms, 2732ms total)
T1168 006:954 JLINK_ReadMemU32(0xE0001058, 0x0001 Items, ...) -- CPU_ReadMem(4 bytes @ 0xE0001058) - Data: 00 00 00 00  returns 0x01 (0001ms, 2733ms total)
T1168 006:955 JLINK_ReadReg(R0)  returns 0x00000000 (0000ms, 2733ms total)
T1168 006:955 JLINK_ReadReg(R1)  returns 0x20000558 (0000ms, 2733ms total)
T1168 006:955 JLINK_ReadReg(R2)  returns 0x0000001F (0000ms, 2733ms total)
T1168 006:955 JLINK_ReadReg(R3)  returns 0x00000020 (0000ms, 2733ms total)
T1168 006:955 JLINK_ReadReg(R4)  returns 0x00000000 (0000ms, 2733ms total)
T1168 006:955 JLINK_ReadReg(R5)  returns 0x20001838 (0000ms, 2733ms total)
T1168 006:955 JLINK_ReadReg(R6)  returns 0x00000000 (0000ms, 2733ms total)
T1168 006:955 JLINK_ReadReg(R7)  returns 0x00000000 (0000ms, 2733ms total)
T1168 006:955 JLINK_ReadReg(R8)  returns 0x00000000 (0000ms, 2733ms total)
T1168 006:955 JLINK_ReadReg(R9)  returns 0x00000000 (0000ms, 2733ms total)
T1168 006:955 JLINK_ReadReg(R10)  returns 0x08010548 (0000ms, 2733ms total)
T1168 006:955 JLINK_ReadReg(R11)  returns 0x00000000 (0000ms, 2733ms total)
T1168 006:955 JLINK_ReadReg(R12)  returns 0x08009589 (0000ms, 2733ms total)
T1168 006:955 JLINK_ReadReg(R13 (SP))  returns 0x20002480 (0000ms, 2733ms total)
T1168 006:955 JLINK_ReadReg(R14)  returns 0x08005251 (0000ms, 2733ms total)
T1168 006:955 JLINK_ReadReg(R15 (PC))  returns 0x080011D4 (0000ms, 2733ms total)
T1168 006:955 JLINK_ReadReg(XPSR)  returns 0x61000000 (0000ms, 2733ms total)
T1168 006:955 JLINK_ReadReg(MSP)  returns 0x20002480 (0000ms, 2733ms total)
T1168 006:955 JLINK_ReadReg(PSP)  returns 0x00000000 (0000ms, 2733ms total)
T1168 006:955 JLINK_ReadReg(CFBP)  returns 0x04000001 (0001ms, 2734ms total)
T1168 006:956 JLINK_ReadReg(FPSCR)  returns 0x03000000 (0003ms, 2737ms total)
T1168 006:959 JLINK_ReadReg(FPS0)  returns 0x00000000 (0000ms, 2737ms total)
T1168 006:959 JLINK_ReadReg(FPS1)  returns 0x00000000 (0000ms, 2737ms total)
T1168 006:959 JLINK_ReadReg(FPS2)  returns 0x00000000 (0000ms, 2737ms total)
T1168 006:959 JLINK_ReadReg(FPS3)  returns 0x00000000 (0000ms, 2737ms total)
T1168 006:959 JLINK_ReadReg(FPS4)  returns 0x00000000 (0001ms, 2738ms total)
T1168 006:960 JLINK_ReadReg(FPS5)  returns 0x00000000 (0000ms, 2738ms total)
T1168 006:960 JLINK_ReadReg(FPS6)  returns 0x00000000 (0000ms, 2738ms total)
T1168 006:960 JLINK_ReadReg(FPS7)  returns 0x00000000 (0000ms, 2738ms total)
T1168 006:960 JLINK_ReadReg(FPS8)  returns 0x00000000 (0000ms, 2738ms total)
T1168 006:960 JLINK_ReadReg(FPS9)  returns 0x00000000 (0000ms, 2738ms total)
T1168 006:960 JLINK_ReadReg(FPS10)  returns 0x00000000 (0000ms, 2738ms total)
T1168 006:960 JLINK_ReadReg(FPS11)  returns 0x00000000 (0000ms, 2738ms total)
T1168 006:960 JLINK_ReadReg(FPS12)  returns 0x00000000 (0000ms, 2738ms total)
T1168 006:960 JLINK_ReadReg(FPS13)  returns 0x00000000 (0000ms, 2738ms total)
T1168 006:960 JLINK_ReadReg(FPS14)  returns 0x00000000 (0000ms, 2738ms total)
T1168 006:960 JLINK_ReadReg(FPS15)  returns 0x00000000 (0000ms, 2738ms total)
T1168 006:960 JLINK_ReadReg(FPS16)  returns 0x00000000 (0000ms, 2738ms total)
T1168 006:960 JLINK_ReadReg(FPS17)  returns 0x00000000 (0000ms, 2738ms total)
T1168 006:960 JLINK_ReadReg(FPS18)  returns 0x00000000 (0000ms, 2738ms total)
T1168 006:960 JLINK_ReadReg(FPS19)  returns 0x00000000 (0000ms, 2738ms total)
T1168 006:960 JLINK_ReadReg(FPS20)  returns 0x00000000 (0000ms, 2738ms total)
T1168 006:960 JLINK_ReadReg(FPS21)  returns 0x00000000 (0000ms, 2738ms total)
T1168 006:960 JLINK_ReadReg(FPS22)  returns 0x00000000 (0000ms, 2738ms total)
T1168 006:960 JLINK_ReadReg(FPS23)  returns 0x00000000 (0000ms, 2738ms total)
T1168 006:960 JLINK_ReadReg(FPS24)  returns 0x00000000 (0000ms, 2738ms total)
T1168 006:960 JLINK_ReadReg(FPS25)  returns 0x00000000 (0000ms, 2738ms total)
T1168 006:960 JLINK_ReadReg(FPS26)  returns 0x00000000 (0000ms, 2738ms total)
T1168 006:960 JLINK_ReadReg(FPS27)  returns 0x00000000 (0000ms, 2738ms total)
T1168 006:960 JLINK_ReadReg(FPS28)  returns 0x00000000 (0000ms, 2738ms total)
T1168 006:960 JLINK_ReadReg(FPS29)  returns 0x00000000 (0000ms, 2738ms total)
T1168 006:960 JLINK_ReadReg(FPS30)  returns 0x00000000 (0000ms, 2738ms total)
T1168 006:960 JLINK_ReadReg(FPS31)  returns 0x00000000 (0000ms, 2738ms total)
T04D4 006:961 JLINK_ReadMem (0x20002484, 0x0004 Bytes, ...) -- CPU_ReadMem(64 bytes @ 0x20002480) -- Updating C cache (64 bytes @ 0x20002480) -- Read from C cache (4 bytes @ 0x20002484) - Data: 51 52 00 08  returns 0x00 (0001ms, 2739ms total)
T04D4 006:962 JLINK_ReadMem (0x20002480, 0x0004 Bytes, ...) -- Read from C cache (4 bytes @ 0x20002480) - Data: 00 00 00 00  returns 0x00 (0000ms, 2739ms total)
T04D4 006:962 JLINK_ReadMem (0x2000248C, 0x0004 Bytes, ...) -- Read from C cache (4 bytes @ 0x2000248C) - Data: 63 52 00 08  returns 0x00 (0000ms, 2739ms total)
T04D4 006:962 JLINK_ReadMem (0x20002488, 0x0004 Bytes, ...) -- Read from C cache (4 bytes @ 0x20002488) - Data: 00 00 00 00  returns 0x00 (0000ms, 2739ms total)
T04D4 006:962 JLINK_ReadMem (0x20002494, 0x0004 Bytes, ...) -- Read from C cache (4 bytes @ 0x20002494) - Data: 69 02 00 08  returns 0x00 (0000ms, 2739ms total)
T04D4 006:962 JLINK_ReadMem (0x20002490, 0x0004 Bytes, ...) -- Read from C cache (4 bytes @ 0x20002490) - Data: 00 00 00 00  returns 0x00 (0000ms, 2739ms total)
T04D4 006:967 JLINK_ReadMem (0x080011D2, 0x0002 Bytes, ...) -- Read from flash cache (2 bytes @ 0x080011D2) - Data: 48 63  returns 0x00 (0000ms, 2739ms total)
T04D4 006:967 JLINK_ReadMem (0x080011D4, 0x003C Bytes, ...) -- Read from flash cache (60 bytes @ 0x080011D4) -- Merging zombie BP[0]: 0xF7FF @ 0x080011D8 - Data: 11 48 C8 63 FF F7 84 FD 4F F4 78 40 FF F7 5A FD ...  returns 0x00 (0000ms, 2739ms total)
T04D4 006:967 JLINK_ReadMem (0x080011CE, 0x0002 Bytes, ...) -- Read from flash cache (2 bytes @ 0x080011CE) - Data: 00 20  returns 0x00 (0000ms, 2739ms total)
T04D4 006:967 JLINK_ReadMem (0x080011D0, 0x003C Bytes, ...) -- Read from flash cache (60 bytes @ 0x080011D0) -- Merging zombie BP[0]: 0xF7FF @ 0x080011D8 - Data: 08 63 48 63 11 48 C8 63 FF F7 84 FD 4F F4 78 40 ...  returns 0x00 (0000ms, 2739ms total)
T04D4 006:967 JLINK_ReadMem (0x080011CA, 0x0002 Bytes, ...) -- Read from flash cache (2 bytes @ 0x080011CA) - Data: 13 48  returns 0x00 (0000ms, 2739ms total)
T04D4 006:967 JLINK_ReadMem (0x080011CC, 0x003C Bytes, ...) -- Read from flash cache (60 bytes @ 0x080011CC) -- Merging zombie BP[0]: 0xF7FF @ 0x080011D8 - Data: 88 63 00 20 08 63 48 63 11 48 C8 63 FF F7 84 FD ...  returns 0x00 (0000ms, 2739ms total)
T1168 008:028 JLINK_Step() -- Read from flash cache (2 bytes @ 0x080011D4) -- CPU_ReadMem(4 bytes @ 0xE0001004) -- Read from flash cache (4 bytes @ 0x0800121C) -- Simulated  returns 0x00 (0002ms, 2741ms total)
T1168 008:030 JLINK_ReadReg(R15 (PC))  returns 0x080011D6 (0000ms, 2741ms total)
T1168 008:030 JLINK_ReadReg(XPSR)  returns 0x61000000 (0000ms, 2741ms total)
T1168 008:030 JLINK_SetBPEx(Addr = 0x080011D8, Type = 0xFFFFFFF2)  returns 0x00000010 (0000ms, 2741ms total)
T1168 008:030 JLINK_SetBPEx(Addr = 0x080011D4, Type = 0xFFFFFFF2)  returns 0x00000011 (0000ms, 2741ms total)
T1168 008:030 JLINK_SetBPEx(Addr = 0x080011DC, Type = 0xFFFFFFF2)  returns 0x00000012 (0000ms, 2741ms total)
T1168 008:030 JLINK_SetBPEx(Addr = 0x08000CEE, Type = 0xFFFFFFF2)  returns 0x00000013 (0000ms, 2741ms total)
T1168 008:030 JLINK_SetBPEx(Addr = 0x08000CF2, Type = 0xFFFFFFF2)  returns 0x00000014 (0000ms, 2741ms total)
T1168 008:030 JLINK_SetBPEx(Addr = 0x08000BB4, Type = 0xFFFFFFF2)  returns 0x00000015 (0000ms, 2741ms total)
T1168 008:030 JLINK_SetBPEx(Addr = 0x080011E4, Type = 0xFFFFFFF2)  returns 0x00000016 (0000ms, 2741ms total)
T1168 008:030 JLINK_Go() -- CPU_WriteMem(4 bytes @ 0xE0002000) -- CPU_WriteMem(4 bytes @ 0xE0002000) -- CPU_WriteMem(4 bytes @ 0xE0002000) -- CPU_WriteMem(4 bytes @ 0xE0002000) -- CPU_WriteMem(4 bytes @ 0xE0002000) -- CPU_WriteMem(4 bytes @ 0xE0002000) -- CPU_ReadMem(4 bytes @ 0xE0001000) -- CPU_WriteMem(4 bytes @ 0xE0001004) (0007ms, 2748ms total)
T1168 008:137 JLINK_IsHalted()  returns TRUE (0002ms, 2750ms total)
T1168 008:139 JLINK_Halt()  returns 0x00 (0000ms, 2748ms total)
T1168 008:139 JLINK_IsHalted()  returns TRUE (0000ms, 2748ms total)
T1168 008:139 JLINK_IsHalted()  returns TRUE (0000ms, 2748ms total)
T1168 008:139 JLINK_IsHalted()  returns TRUE (0000ms, 2748ms total)
T1168 008:139 JLINK_ReadReg(R15 (PC))  returns 0x080011D8 (0000ms, 2748ms total)
T1168 008:139 JLINK_ReadReg(XPSR)  returns 0x61000000 (0000ms, 2748ms total)
T1168 008:139 JLINK_ClrBPEx(BPHandle = 0x00000010)  returns 0x00 (0000ms, 2748ms total)
T1168 008:139 JLINK_ClrBPEx(BPHandle = 0x00000011)  returns 0x00 (0000ms, 2748ms total)
T1168 008:139 JLINK_ClrBPEx(BPHandle = 0x00000012)  returns 0x00 (0000ms, 2748ms total)
T1168 008:139 JLINK_ClrBPEx(BPHandle = 0x00000013)  returns 0x00 (0000ms, 2748ms total)
T1168 008:139 JLINK_ClrBPEx(BPHandle = 0x00000014)  returns 0x00 (0000ms, 2748ms total)
T1168 008:140 JLINK_ClrBPEx(BPHandle = 0x00000015)  returns 0x00 (0000ms, 2749ms total)
T1168 008:140 JLINK_ClrBPEx(BPHandle = 0x00000016)  returns 0x00 (0000ms, 2749ms total)
T1168 008:140 JLINK_ReadMemU32(0xE000ED30, 0x0001 Items, ...) -- CPU_ReadMem(4 bytes @ 0xE000ED30) - Data: 03 00 00 00  returns 0x01 (0000ms, 2749ms total)
T1168 008:140 JLINK_ReadMemU32(0xE0001028, 0x0001 Items, ...) -- CPU_ReadMem(4 bytes @ 0xE0001028) - Data: 00 00 00 00  returns 0x01 (0001ms, 2750ms total)
T1168 008:141 JLINK_ReadMemU32(0xE0001038, 0x0001 Items, ...) -- CPU_ReadMem(4 bytes @ 0xE0001038) - Data: 00 02 00 00  returns 0x01 (0001ms, 2751ms total)
T1168 008:142 JLINK_ReadMemU32(0xE0001048, 0x0001 Items, ...) -- CPU_ReadMem(4 bytes @ 0xE0001048) - Data: 00 00 00 00  returns 0x01 (0000ms, 2751ms total)
T1168 008:142 JLINK_ReadMemU32(0xE0001058, 0x0001 Items, ...) -- CPU_ReadMem(4 bytes @ 0xE0001058) - Data: 00 00 00 00  returns 0x01 (0001ms, 2752ms total)
T1168 008:143 JLINK_ReadReg(R0)  returns 0x2000003C (0000ms, 2752ms total)
T1168 008:143 JLINK_ReadReg(R1)  returns 0x20000558 (0000ms, 2752ms total)
T1168 008:143 JLINK_ReadReg(R2)  returns 0x0000001F (0000ms, 2752ms total)
T1168 008:143 JLINK_ReadReg(R3)  returns 0x00000020 (0000ms, 2752ms total)
T1168 008:143 JLINK_ReadReg(R4)  returns 0x00000000 (0000ms, 2752ms total)
T1168 008:143 JLINK_ReadReg(R5)  returns 0x20001838 (0000ms, 2752ms total)
T1168 008:143 JLINK_ReadReg(R6)  returns 0x00000000 (0000ms, 2752ms total)
T1168 008:143 JLINK_ReadReg(R7)  returns 0x00000000 (0000ms, 2752ms total)
T1168 008:143 JLINK_ReadReg(R8)  returns 0x00000000 (0000ms, 2752ms total)
T1168 008:143 JLINK_ReadReg(R9)  returns 0x00000000 (0000ms, 2752ms total)
T1168 008:143 JLINK_ReadReg(R10)  returns 0x08010548 (0000ms, 2752ms total)
T1168 008:143 JLINK_ReadReg(R11)  returns 0x00000000 (0000ms, 2752ms total)
T1168 008:143 JLINK_ReadReg(R12)  returns 0x08009589 (0000ms, 2752ms total)
T1168 008:143 JLINK_ReadReg(R13 (SP))  returns 0x20002480 (0000ms, 2752ms total)
T1168 008:143 JLINK_ReadReg(R14)  returns 0x08005251 (0000ms, 2752ms total)
T1168 008:143 JLINK_ReadReg(R15 (PC))  returns 0x080011D8 (0000ms, 2752ms total)
T1168 008:143 JLINK_ReadReg(XPSR)  returns 0x61000000 (0000ms, 2752ms total)
T1168 008:143 JLINK_ReadReg(MSP)  returns 0x20002480 (0000ms, 2752ms total)
T1168 008:143 JLINK_ReadReg(PSP)  returns 0x00000000 (0000ms, 2752ms total)
T1168 008:143 JLINK_ReadReg(CFBP)  returns 0x04000001 (0000ms, 2752ms total)
T1168 008:143 JLINK_ReadReg(FPSCR)  returns 0x03000000 (0004ms, 2756ms total)
T1168 008:147 JLINK_ReadReg(FPS0)  returns 0x00000000 (0000ms, 2756ms total)
T1168 008:147 JLINK_ReadReg(FPS1)  returns 0x00000000 (0000ms, 2756ms total)
T1168 008:147 JLINK_ReadReg(FPS2)  returns 0x00000000 (0000ms, 2756ms total)
T1168 008:147 JLINK_ReadReg(FPS3)  returns 0x00000000 (0000ms, 2756ms total)
T1168 008:147 JLINK_ReadReg(FPS4)  returns 0x00000000 (0000ms, 2756ms total)
T1168 008:147 JLINK_ReadReg(FPS5)  returns 0x00000000 (0000ms, 2756ms total)
T1168 008:147 JLINK_ReadReg(FPS6)  returns 0x00000000 (0000ms, 2756ms total)
T1168 008:147 JLINK_ReadReg(FPS7)  returns 0x00000000 (0000ms, 2756ms total)
T1168 008:147 JLINK_ReadReg(FPS8)  returns 0x00000000 (0000ms, 2756ms total)
T1168 008:147 JLINK_ReadReg(FPS9)  returns 0x00000000 (0000ms, 2756ms total)
T1168 008:147 JLINK_ReadReg(FPS10)  returns 0x00000000 (0000ms, 2756ms total)
T1168 008:147 JLINK_ReadReg(FPS11)  returns 0x00000000 (0000ms, 2756ms total)
T1168 008:147 JLINK_ReadReg(FPS12)  returns 0x00000000 (0001ms, 2757ms total)
T1168 008:148 JLINK_ReadReg(FPS13)  returns 0x00000000 (0000ms, 2757ms total)
T1168 008:148 JLINK_ReadReg(FPS14)  returns 0x00000000 (0000ms, 2757ms total)
T1168 008:148 JLINK_ReadReg(FPS15)  returns 0x00000000 (0000ms, 2757ms total)
T1168 008:148 JLINK_ReadReg(FPS16)  returns 0x00000000 (0000ms, 2757ms total)
T1168 008:148 JLINK_ReadReg(FPS17)  returns 0x00000000 (0000ms, 2757ms total)
T1168 008:148 JLINK_ReadReg(FPS18)  returns 0x00000000 (0000ms, 2757ms total)
T1168 008:148 JLINK_ReadReg(FPS19)  returns 0x00000000 (0000ms, 2757ms total)
T1168 008:148 JLINK_ReadReg(FPS20)  returns 0x00000000 (0000ms, 2757ms total)
T1168 008:148 JLINK_ReadReg(FPS21)  returns 0x00000000 (0000ms, 2757ms total)
T1168 008:148 JLINK_ReadReg(FPS22)  returns 0x00000000 (0000ms, 2757ms total)
T1168 008:148 JLINK_ReadReg(FPS23)  returns 0x00000000 (0000ms, 2757ms total)
T1168 008:148 JLINK_ReadReg(FPS24)  returns 0x00000000 (0000ms, 2757ms total)
T1168 008:148 JLINK_ReadReg(FPS25)  returns 0x00000000 (0000ms, 2757ms total)
T1168 008:148 JLINK_ReadReg(FPS26)  returns 0x00000000 (0000ms, 2757ms total)
T1168 008:148 JLINK_ReadReg(FPS27)  returns 0x00000000 (0000ms, 2757ms total)
T1168 008:148 JLINK_ReadReg(FPS28)  returns 0x00000000 (0000ms, 2757ms total)
T1168 008:148 JLINK_ReadReg(FPS29)  returns 0x00000000 (0000ms, 2757ms total)
T1168 008:148 JLINK_ReadReg(FPS30)  returns 0x00000000 (0000ms, 2757ms total)
T1168 008:148 JLINK_ReadReg(FPS31)  returns 0x00000000 (0000ms, 2757ms total)
T04D4 008:148 JLINK_ReadMem (0x20002484, 0x0004 Bytes, ...) -- CPU_ReadMem(64 bytes @ 0x20002480) -- Updating C cache (64 bytes @ 0x20002480) -- Read from C cache (4 bytes @ 0x20002484) - Data: 51 52 00 08  returns 0x00 (0002ms, 2759ms total)
T04D4 008:150 JLINK_ReadMem (0x20002480, 0x0004 Bytes, ...) -- Read from C cache (4 bytes @ 0x20002480) - Data: 00 00 00 00  returns 0x00 (0000ms, 2759ms total)
T04D4 008:150 JLINK_ReadMem (0x2000248C, 0x0004 Bytes, ...) -- Read from C cache (4 bytes @ 0x2000248C) - Data: 63 52 00 08  returns 0x00 (0000ms, 2759ms total)
T04D4 008:150 JLINK_ReadMem (0x20002488, 0x0004 Bytes, ...) -- Read from C cache (4 bytes @ 0x20002488) - Data: 00 00 00 00  returns 0x00 (0000ms, 2759ms total)
T04D4 008:150 JLINK_ReadMem (0x20002494, 0x0004 Bytes, ...) -- Read from C cache (4 bytes @ 0x20002494) - Data: 69 02 00 08  returns 0x00 (0000ms, 2759ms total)
T04D4 008:150 JLINK_ReadMem (0x20002490, 0x0004 Bytes, ...) -- Read from C cache (4 bytes @ 0x20002490) - Data: 00 00 00 00  returns 0x00 (0000ms, 2759ms total)
T04D4 008:156 JLINK_ReadMem (0x080011CA, 0x0002 Bytes, ...) -- Read from flash cache (2 bytes @ 0x080011CA) - Data: 13 48  returns 0x00 (0000ms, 2759ms total)
T04D4 008:156 JLINK_ReadMem (0x080011CC, 0x003C Bytes, ...) -- Read from flash cache (60 bytes @ 0x080011CC) -- Merging zombie BP[0]: 0xF7FF @ 0x080011D8 - Data: 88 63 00 20 08 63 48 63 11 48 C8 63 FF F7 84 FD ...  returns 0x00 (0000ms, 2759ms total)
T1168 008:756 JLINK_Step() -- Merging zombie BP[0]: 0xF7FF @ 0x080011D8 -- Merging zombie BP[0]: 0xF7FF @ 0x080011D8 -- CPU_ReadMem(4 bytes @ 0xE0001004) -- Read from flash cache (2 bytes @ 0x080011DA) -- Simulated  returns 0x00 (0001ms, 2760ms total)
T1168 008:757 JLINK_ReadReg(R15 (PC))  returns 0x08000CE4 (0000ms, 2760ms total)
T1168 008:757 JLINK_ReadReg(XPSR)  returns 0x61000000 (0000ms, 2760ms total)
T1168 008:757 JLINK_SetBPEx(Addr = 0x080011D8, Type = 0xFFFFFFF2)  returns 0x00000017 (0000ms, 2760ms total)
T1168 008:757 JLINK_SetBPEx(Addr = 0x080011D4, Type = 0xFFFFFFF2)  returns 0x00000018 (0001ms, 2761ms total)
T1168 008:758 JLINK_SetBPEx(Addr = 0x080011DC, Type = 0xFFFFFFF2)  returns 0x00000019 (0000ms, 2761ms total)
T1168 008:758 JLINK_SetBPEx(Addr = 0x08000CEE, Type = 0xFFFFFFF2)  returns 0x0000001A (0000ms, 2761ms total)
T1168 008:758 JLINK_SetBPEx(Addr = 0x08000CF2, Type = 0xFFFFFFF2)  returns 0x0000001B (0000ms, 2761ms total)
T1168 008:758 JLINK_SetBPEx(Addr = 0x08000BB4, Type = 0xFFFFFFF2)  returns 0x0000001C (0000ms, 2761ms total)
T1168 008:758 JLINK_SetBPEx(Addr = 0x080011E4, Type = 0xFFFFFFF2)  returns 0x0000001D (0000ms, 2761ms total)
T1168 008:758 JLINK_Go() -- CPU_WriteMem(4 bytes @ 0xE0002000) -- CPU_WriteMem(4 bytes @ 0xE0002000) -- CPU_WriteMem(4 bytes @ 0xE0002000) -- CPU_WriteMem(4 bytes @ 0xE0002000) -- CPU_WriteMem(4 bytes @ 0xE0002000) -- CPU_WriteMem(4 bytes @ 0xE0002000) -- CPU_ReadMem(4 bytes @ 0xE0001000) -- CPU_WriteMem(4 bytes @ 0xE0001004) (0006ms, 2767ms total)
T1168 008:864 JLINK_IsHalted()  returns TRUE (0002ms, 2769ms total)
T1168 008:866 JLINK_Halt()  returns 0x00 (0000ms, 2767ms total)
T1168 008:866 JLINK_IsHalted()  returns TRUE (0001ms, 2768ms total)
T1168 008:867 JLINK_IsHalted()  returns TRUE (0000ms, 2767ms total)
T1168 008:867 JLINK_IsHalted()  returns TRUE (0000ms, 2767ms total)
T1168 008:867 JLINK_ReadReg(R15 (PC))  returns 0x08000CEE (0000ms, 2767ms total)
T1168 008:867 JLINK_ReadReg(XPSR)  returns 0x61000000 (0000ms, 2767ms total)
T1168 008:867 JLINK_ClrBPEx(BPHandle = 0x00000017)  returns 0x00 (0000ms, 2767ms total)
T1168 008:867 JLINK_ClrBPEx(BPHandle = 0x00000018)  returns 0x00 (0000ms, 2767ms total)
T1168 008:867 JLINK_ClrBPEx(BPHandle = 0x00000019)  returns 0x00 (0000ms, 2767ms total)
T1168 008:867 JLINK_ClrBPEx(BPHandle = 0x0000001A)  returns 0x00 (0000ms, 2767ms total)
T1168 008:867 JLINK_ClrBPEx(BPHandle = 0x0000001B)  returns 0x00 (0000ms, 2767ms total)
T1168 008:867 JLINK_ClrBPEx(BPHandle = 0x0000001C)  returns 0x00 (0000ms, 2767ms total)
T1168 008:867 JLINK_ClrBPEx(BPHandle = 0x0000001D)  returns 0x00 (0000ms, 2767ms total)
T1168 008:867 JLINK_ReadMemU32(0xE000ED30, 0x0001 Items, ...) -- CPU_ReadMem(4 bytes @ 0xE000ED30) - Data: 03 00 00 00  returns 0x01 (0001ms, 2768ms total)
T1168 008:868 JLINK_ReadMemU32(0xE0001028, 0x0001 Items, ...) -- CPU_ReadMem(4 bytes @ 0xE0001028) - Data: 00 00 00 00  returns 0x01 (0000ms, 2768ms total)
T1168 008:868 JLINK_ReadMemU32(0xE0001038, 0x0001 Items, ...) -- CPU_ReadMem(4 bytes @ 0xE0001038) - Data: 00 02 00 00  returns 0x01 (0001ms, 2769ms total)
T1168 008:869 JLINK_ReadMemU32(0xE0001048, 0x0001 Items, ...) -- CPU_ReadMem(4 bytes @ 0xE0001048) - Data: 00 00 00 00  returns 0x01 (0001ms, 2770ms total)
T1168 008:870 JLINK_ReadMemU32(0xE0001058, 0x0001 Items, ...) -- CPU_ReadMem(4 bytes @ 0xE0001058) - Data: 00 00 00 00  returns 0x01 (0000ms, 2770ms total)
T1168 008:870 JLINK_ReadReg(R0)  returns 0x00000000 (0000ms, 2770ms total)
T1168 008:870 JLINK_ReadReg(R1)  returns 0x40013000 (0000ms, 2770ms total)
T1168 008:870 JLINK_ReadReg(R2)  returns 0x40020400 (0000ms, 2770ms total)
T1168 008:870 JLINK_ReadReg(R3)  returns 0x00000020 (0000ms, 2770ms total)
T1168 008:870 JLINK_ReadReg(R4)  returns 0x00000000 (0000ms, 2770ms total)
T1168 008:870 JLINK_ReadReg(R5)  returns 0x20001838 (0000ms, 2770ms total)
T1168 008:870 JLINK_ReadReg(R6)  returns 0x00000000 (0001ms, 2771ms total)
T1168 008:871 JLINK_ReadReg(R7)  returns 0x00000000 (0000ms, 2771ms total)
T1168 008:871 JLINK_ReadReg(R8)  returns 0x00000000 (0000ms, 2771ms total)
T1168 008:871 JLINK_ReadReg(R9)  returns 0x00000000 (0000ms, 2771ms total)
T1168 008:871 JLINK_ReadReg(R10)  returns 0x08010548 (0000ms, 2771ms total)
T1168 008:871 JLINK_ReadReg(R11)  returns 0x00000000 (0000ms, 2771ms total)
T1168 008:871 JLINK_ReadReg(R12)  returns 0x08009589 (0000ms, 2771ms total)
T1168 008:871 JLINK_ReadReg(R13 (SP))  returns 0x20002478 (0000ms, 2771ms total)
T1168 008:871 JLINK_ReadReg(R14)  returns 0x080009C3 (0000ms, 2771ms total)
T1168 008:871 JLINK_ReadReg(R15 (PC))  returns 0x08000CEE (0000ms, 2771ms total)
T1168 008:871 JLINK_ReadReg(XPSR)  returns 0x61000000 (0000ms, 2771ms total)
T1168 008:871 JLINK_ReadReg(MSP)  returns 0x20002478 (0000ms, 2771ms total)
T1168 008:871 JLINK_ReadReg(PSP)  returns 0x00000000 (0000ms, 2771ms total)
T1168 008:871 JLINK_ReadReg(CFBP)  returns 0x04000001 (0000ms, 2771ms total)
T1168 008:871 JLINK_ReadReg(FPSCR)  returns 0x03000000 (0003ms, 2774ms total)
T1168 008:874 JLINK_ReadReg(FPS0)  returns 0x00000000 (0000ms, 2774ms total)
T1168 008:875 JLINK_ReadReg(FPS1)  returns 0x00000000 (0000ms, 2775ms total)
T1168 008:875 JLINK_ReadReg(FPS2)  returns 0x00000000 (0000ms, 2775ms total)
T1168 008:875 JLINK_ReadReg(FPS3)  returns 0x00000000 (0000ms, 2775ms total)
T1168 008:875 JLINK_ReadReg(FPS4)  returns 0x00000000 (0000ms, 2775ms total)
T1168 008:875 JLINK_ReadReg(FPS5)  returns 0x00000000 (0000ms, 2775ms total)
T1168 008:875 JLINK_ReadReg(FPS6)  returns 0x00000000 (0000ms, 2775ms total)
T1168 008:875 JLINK_ReadReg(FPS7)  returns 0x00000000 (0000ms, 2775ms total)
T1168 008:875 JLINK_ReadReg(FPS8)  returns 0x00000000 (0000ms, 2775ms total)
T1168 008:875 JLINK_ReadReg(FPS9)  returns 0x00000000 (0000ms, 2775ms total)
T1168 008:875 JLINK_ReadReg(FPS10)  returns 0x00000000 (0000ms, 2775ms total)
T1168 008:875 JLINK_ReadReg(FPS11)  returns 0x00000000 (0000ms, 2775ms total)
T1168 008:875 JLINK_ReadReg(FPS12)  returns 0x00000000 (0000ms, 2775ms total)
T1168 008:875 JLINK_ReadReg(FPS13)  returns 0x00000000 (0000ms, 2775ms total)
T1168 008:875 JLINK_ReadReg(FPS14)  returns 0x00000000 (0000ms, 2775ms total)
T1168 008:875 JLINK_ReadReg(FPS15)  returns 0x00000000 (0000ms, 2775ms total)
T1168 008:875 JLINK_ReadReg(FPS16)  returns 0x00000000 (0000ms, 2775ms total)
T1168 008:875 JLINK_ReadReg(FPS17)  returns 0x00000000 (0000ms, 2775ms total)
T1168 008:875 JLINK_ReadReg(FPS18)  returns 0x00000000 (0000ms, 2775ms total)
T1168 008:875 JLINK_ReadReg(FPS19)  returns 0x00000000 (0000ms, 2775ms total)
T1168 008:875 JLINK_ReadReg(FPS20)  returns 0x00000000 (0000ms, 2775ms total)
T1168 008:875 JLINK_ReadReg(FPS21)  returns 0x00000000 (0000ms, 2775ms total)
T1168 008:875 JLINK_ReadReg(FPS22)  returns 0x00000000 (0000ms, 2775ms total)
T1168 008:875 JLINK_ReadReg(FPS23)  returns 0x00000000 (0000ms, 2775ms total)
T1168 008:875 JLINK_ReadReg(FPS24)  returns 0x00000000 (0000ms, 2775ms total)
T1168 008:875 JLINK_ReadReg(FPS25)  returns 0x00000000 (0000ms, 2775ms total)
T1168 008:875 JLINK_ReadReg(FPS26)  returns 0x00000000 (0000ms, 2775ms total)
T1168 008:875 JLINK_ReadReg(FPS27)  returns 0x00000000 (0000ms, 2775ms total)
T1168 008:875 JLINK_ReadReg(FPS28)  returns 0x00000000 (0000ms, 2775ms total)
T1168 008:875 JLINK_ReadReg(FPS29)  returns 0x00000000 (0000ms, 2775ms total)
T1168 008:875 JLINK_ReadReg(FPS30)  returns 0x00000000 (0000ms, 2775ms total)
T1168 008:875 JLINK_ReadReg(FPS31)  returns 0x00000000 (0000ms, 2775ms total)
T04D4 008:876 JLINK_ReadMem (0x2000247C, 0x0004 Bytes, ...) -- CPU_ReadMem(64 bytes @ 0x20002440) -- Updating C cache (64 bytes @ 0x20002440) -- Read from C cache (4 bytes @ 0x2000247C) - Data: DD 11 00 08  returns 0x00 (0001ms, 2776ms total)
T04D4 008:877 JLINK_ReadMem (0x20002484, 0x0004 Bytes, ...) -- CPU_ReadMem(64 bytes @ 0x20002480) -- Updating C cache (64 bytes @ 0x20002480) -- Read from C cache (4 bytes @ 0x20002484) - Data: 51 52 00 08  returns 0x00 (0001ms, 2777ms total)
T04D4 008:878 JLINK_ReadMem (0x20002480, 0x0004 Bytes, ...) -- Read from C cache (4 bytes @ 0x20002480) - Data: 00 00 00 00  returns 0x00 (0000ms, 2777ms total)
T04D4 008:878 JLINK_ReadMem (0x2000248C, 0x0004 Bytes, ...) -- Read from C cache (4 bytes @ 0x2000248C) - Data: 63 52 00 08  returns 0x00 (0000ms, 2777ms total)
T04D4 008:878 JLINK_ReadMem (0x20002488, 0x0004 Bytes, ...) -- Read from C cache (4 bytes @ 0x20002488) - Data: 00 00 00 00  returns 0x00 (0000ms, 2777ms total)
T04D4 008:878 JLINK_ReadMem (0x20002494, 0x0004 Bytes, ...) -- Read from C cache (4 bytes @ 0x20002494) - Data: 69 02 00 08  returns 0x00 (0000ms, 2777ms total)
T04D4 008:878 JLINK_ReadMem (0x20002490, 0x0004 Bytes, ...) -- Read from C cache (4 bytes @ 0x20002490) - Data: 00 00 00 00  returns 0x00 (0000ms, 2777ms total)
T04D4 008:878 JLINK_ReadMem (0x20002478, 0x0001 Bytes, ...) -- Read from C cache (1 bytes @ 0x20002478) - Data: 00  returns 0x00 (0000ms, 2777ms total)
T04D4 008:885 JLINK_ReadMem (0x08000CEA, 0x0002 Bytes, ...) -- Read from flash cache (2 bytes @ 0x08000CEA) - Data: FF F7  returns 0x00 (0001ms, 2778ms total)
T04D4 008:886 JLINK_ReadMem (0x08000CEC, 0x003C Bytes, ...) -- Read from flash cache (60 bytes @ 0x08000CEC) - Data: 80 FE FF F7 5A FF FF F7 6B FF 00 21 11 20 FF F7 ...  returns 0x00 (0000ms, 2778ms total)
